T046C 4778:475 SEGGER J-Link V6.30h Log File (0000ms, 12455ms total)
T046C 4778:475 DLL Compiled: Mar 16 2018 18:02:51 (0000ms, 12455ms total)
T046C 4778:475 Logging started @ 2018-05-08 14:59 (0000ms, 12455ms total)
T046C 4778:475 JLINK_SetWarnOutHandler(...) (0000ms, 12455ms total)
T046C 4778:475 JLINK_OpenEx(...)
Firmware: J-Link STLink V2 compiled Jun 26 2017 10:34:41
Hardware: V1.00
S/N: 776864305
TELNET listener socket opened on port 19021WEBSRV 
Starting webserver (0103ms, 12558ms total)
T046C 4778:475 WEBSRV Webserver running on local port 19080 (0103ms, 12558ms total)
T046C 4778:475   returns O.K. (0103ms, 12558ms total)
T046C 4778:580 JLINK_GetEmuCaps()  returns 0x98EA5A33 (0000ms, 12558ms total)
T046C 4778:580 JLINK_TIF_GetAvailable(...) (0001ms, 12559ms total)
T046C 4778:581 JLINK_SetErrorOutHandler(...) (0000ms, 12559ms total)
T046C 4778:581 JLINK_ExecCommand("ProjectFile = "C:\Keil_v5\project\test\JLinkSettings.ini"", ...).   returns 0x00 (0001ms, 12560ms total)
T046C 4778:582 JLINK_ExecCommand("Device = STM32F407VG", ...). Device "STM32F407VG" selected.  returns 0x00 (0002ms, 12562ms total)
T046C 4778:584 JLINK_ExecCommand("DisableConnectionTimeout", ...).   returns 0x01 (0000ms, 12562ms total)
T046C 4778:584 JLINK_GetHardwareVersion()  returns 0x2710 (0000ms, 12562ms total)
T046C 4778:584 JLINK_GetDLLVersion()  returns 63008 (0000ms, 12562ms total)
T046C 4778:584 JLINK_GetFirmwareString(...) (0000ms, 12562ms total)
T046C 4778:584 JLINK_GetDLLVersion()  returns 63008 (0000ms, 12562ms total)
T046C 4778:584 JLINK_GetCompileDateTime() (0000ms, 12562ms total)
T046C 4778:584 JLINK_GetFirmwareString(...) (0000ms, 12562ms total)
T046C 4778:584 JLINK_GetHardwareVersion()  returns 0x2710 (0000ms, 12562ms total)
T046C 4778:584 JLINK_TIF_Select(JLINKARM_TIF_SWD)  returns 0x00 (0004ms, 12566ms total)
T046C 4778:588 JLINK_SetSpeed(5000) (0001ms, 12567ms total)
T046C 4778:589 JLINK_GetId() >0x10B TIF>Found SW-DP with ID 0x4BA01477 >0x0D TIF> >0x28 TIF> >0x0D TIF> >0x28 TIF> >0x0D TIF> >0x28 TIF> >0x0D TIF> >0x28 TIF> >0x0D TIF> >0x21 TIF> >0x0D TIF> >0x28 TIF> >0x0D TIF> >0x28 TIF> >0x0D TIF> >0x28 TIF> >0x0D TIF> >0x21 TIF> >0x0D TIF> >0x21 TIF> >0x0D TIF> >0x28 TIF> >0x0D TIF> >0x21 TIF> >0x0D TIF> >0x21 TIF> >0x0D TIF> >0x28 TIF> >0x0D TIF> >0x21 TIF> >0x0D TIF> >0x21 TIF> >0x0D TIF> >0x28 TIF> >0x0D TIF> >0x21 TIF> >0x0D TIF> >0x21 TIF> >0x0D TIF>
 >0x28 TIF> >0x0D TIF> >0x21 TIF> >0x0D TIF> >0x21 TIF> >0x0D TIF> >0x28 TIF> >0x0D TIF> >0x21 TIF> >0x0D TIF> >0x21 TIF> >0x10B TIF>Found SW-DP with ID 0x4BA01477 >0x0D TIF> >0x28 TIF> >0x0D TIF> >0x28 TIF> >0x0D TIF> >0x28 TIF> >0x0D TIF> >0x28 TIF> >0x0D TIF> >0x21 TIF> >0x0D TIF> >0x28 TIF>Scanning AP map to find all available APs >0x0D TIF> >0x28 TIF> >0x0D TIF> >0x21 TIF> >0x0D TIF> >0x21 TIF> >0x0D TIF> >0x28 TIF> >0x0D TIF> >0x21 TIF> >0x0D TIF> >0x21 TIF>
AP[1]: Stopped AP scan as end of AP map has been reachedAP[0]: AHB-AP (IDR: 0x24770011)Iterating through AP map to find AHB-AP to use >0x42 TIF> >0x28 TIF> >0x0D TIF> >0x28 TIF> >0x0D TIF> >0x21 TIF> >0x0D TIF> >0x21 TIF> >0x42 TIF> >0x28 TIF> >0x0D TIF> >0x28 TIF> >0x0D TIF> >0x28 TIF> >0x0D TIF> >0x21 TIF> >0x0D TIF> >0x21 TIF>AP[0]: Core foundAP[0]: AHB-AP ROM base: 0xE00FF000 >0x0D TIF> >0x28 TIF> >0x0D TIF> >0x28 TIF> >0x0D TIF> >0x28 TIF> >0x0D TIF> >0x21 TIF> >0x0D TIF> >0x21 TIF>
CPUID register: 0x410FC241. Implementer code: 0x41 (ARM)Found Cortex-M4 r0p1, Little endian. -- CPU_ReadMem(4 bytes @ 0xE000EDF0) -- CPU_WriteMem(4 bytes @ 0xE000EDF0) -- CPU_ReadMem(4 bytes @ 0xE0002000)FPUnit: 6 code (BP) slots and 2 literal slots -- CPU_ReadMem(4 bytes @ 0xE000EDFC) -- CPU_WriteMem(4 bytes @ 0xE000EDFC) -- CPU_ReadMem(4 bytes @ 0xE0001000) -- CPU_WriteMem(4 bytes @ 0xE0001000) -- CPU_ReadMem(4 bytes @ 0xE000ED88) -- CPU_WriteMem(4 bytes @ 0xE000ED88)
 -- CPU_ReadMem(4 bytes @ 0xE000ED88) -- CPU_WriteMem(4 bytes @ 0xE000ED88)CoreSight components:ROMTbl[0] @ E00FF000 -- CPU_ReadMem(16 bytes @ 0xE00FF000) -- CPU_ReadMem(16 bytes @ 0xE000EFF0) -- CPU_ReadMem(16 bytes @ 0xE000EFE0)ROMTbl[0][0]: E000E000, CID: B105E00D, PID: 000BB00C SCS-M7 -- CPU_ReadMem(16 bytes @ 0xE0001FF0) -- CPU_ReadMem(16 bytes @ 0xE0001FE0)ROMTbl[0][1]: E0001000, CID: B105E00D, PID: 003BB002 DWT -- CPU_ReadMem(16 bytes @ 0xE0002FF0) -- CPU_ReadMem(16 bytes @ 0xE0002FE0)
ROMTbl[0][2]: E0002000, CID: B105E00D, PID: 002BB003 FPB -- CPU_ReadMem(16 bytes @ 0xE0000FF0) -- CPU_ReadMem(16 bytes @ 0xE0000FE0)ROMTbl[0][3]: E0000000, CID: B105E00D, PID: 003BB001 ITM -- CPU_ReadMem(16 bytes @ 0xE00FF010) -- CPU_ReadMem(16 bytes @ 0xE0040FF0) -- CPU_ReadMem(16 bytes @ 0xE0040FE0)ROMTbl[0][4]: E0040000, CID: B105900D, PID: 000BB9A1 TPIU -- CPU_ReadMem(16 bytes @ 0xE0041FF0) -- CPU_ReadMem(16 bytes @ 0xE0041FE0)ROMTbl[0][5]: E0041000, CID: B105900D, PID: 000BB925 ETM >0x0D TIF>
 >0x21 TIF>  returns 0x2BA01477 (0239ms, 12806ms total)
T046C 4778:828 JLINK_GetDLLVersion()  returns 63008 (0000ms, 12806ms total)
T046C 4778:828 JLINK_CORE_GetFound()  returns 0xE0000FF (0000ms, 12806ms total)
T046C 4778:828 JLINK_GetDebugInfo(0x100 = JLINKARM_ROM_TABLE_ADDR_INDEX) -- Value=0xE00FF000  returns 0x00 (0000ms, 12806ms total)
T046C 4778:828 JLINK_GetDebugInfo(0x100 = JLINKARM_ROM_TABLE_ADDR_INDEX) -- Value=0xE00FF000  returns 0x00 (0000ms, 12806ms total)
T046C 4778:828 JLINK_GetDebugInfo(0x101 = JLINKARM_DEBUG_INFO_ETM_ADDR_INDEX) -- Value=0xE0041000  returns 0x00 (0000ms, 12806ms total)
T046C 4778:828 JLINK_ReadMemEx(0xE0041FD0, 0x0020 Bytes, ..., Flags = 0x02000004) -- CPU_ReadMem(32 bytes @ 0xE0041FD0) - Data: 04 00 00 00 00 00 00 00 00 00 00 00 00 00 00 00 ...  returns 0x20 (0002ms, 12808ms total)
T046C 4778:830 JLINK_GetDebugInfo(0x102 = JLINKARM_DEBUG_INFO_MTB_ADDR_INDEX) -- Value=0x00000000  returns 0x00 (0000ms, 12808ms total)
T046C 4778:830 JLINK_GetDebugInfo(0x103 = JLINKARM_DEBUG_INFO_TPIU_ADDR_INDEX) -- Value=0xE0040000  returns 0x00 (0000ms, 12808ms total)
T046C 4778:830 JLINK_GetDebugInfo(0x104 = JLINKARM_DEBUG_INFO_ITM_ADDR_INDEX) -- Value=0xE0000000  returns 0x00 (0000ms, 12808ms total)
T046C 4778:830 JLINK_GetDebugInfo(0x105 = JLINKARM_DEBUG_INFO_DWT_ADDR_INDEX) -- Value=0xE0001000  returns 0x00 (0000ms, 12808ms total)
T046C 4778:830 JLINK_GetDebugInfo(0x106 = JLINKARM_DEBUG_INFO_FPB_ADDR_INDEX) -- Value=0xE0002000  returns 0x00 (0000ms, 12808ms total)
T046C 4778:830 JLINK_GetDebugInfo(0x107 = JLINKARM_DEBUG_INFO_NVIC_ADDR_INDEX) -- Value=0xE000E000  returns 0x00 (0000ms, 12808ms total)
T046C 4778:830 JLINK_GetDebugInfo(0x10C = JLINKARM_DEBUG_INFO_DBG_ADDR_INDEX) -- Value=0xE000EDF0  returns 0x00 (0000ms, 12808ms total)
T046C 4778:830 JLINK_GetDebugInfo(0x01 = Unknown) -- Value=0x00000001  returns 0x00 (0000ms, 12808ms total)
T046C 4778:830 JLINK_ReadMemU32(0xE000ED00, 0x0001 Items, ...) -- CPU_ReadMem(4 bytes @ 0xE000ED00) - Data: 41 C2 0F 41  returns 0x01 (0001ms, 12809ms total)
T046C 4778:831 JLINK_GetDebugInfo(0x10F = JLINKARM_DEBUG_INFO_HAS_CORTEX_M_SECURITY_EXT_INDEX) -- Value=0x00000000  returns 0x00 (0000ms, 12809ms total)
T046C 4778:831 JLINK_SetResetType(JLINKARM_CM3_RESET_TYPE_NORMAL)  returns JLINKARM_CM3_RESET_TYPE_NORMAL (0000ms, 12809ms total)
T046C 4778:831 JLINK_Reset() -- CPU is running -- CPU_WriteMem(4 bytes @ 0xE000EDF0) -- CPU is running -- CPU_WriteMem(4 bytes @ 0xE000EDFC)Reset: Halt core after reset via DEMCR.VC_CORERESET. >0x35 TIF>Reset: Reset device via AIRCR.SYSRESETREQ. -- CPU is running -- CPU_WriteMem(4 bytes @ 0xE000ED0C) >0x0D TIF> >0x28 TIF> -- CPU_ReadMem(4 bytes @ 0xE000EDF0) -- CPU_ReadMem(4 bytes @ 0xE000EDF0) -- CPU is running -- CPU_WriteMem(4 bytes @ 0xE000EDF0) -- CPU is running -- CPU_WriteMem(4 bytes @ 0xE000EDFC)
 -- CPU_ReadMem(4 bytes @ 0xE000EDF0) -- CPU_WriteMem(4 bytes @ 0xE0002000) -- CPU_ReadMem(4 bytes @ 0xE000EDFC) -- CPU_ReadMem(4 bytes @ 0xE0001000) (0073ms, 12882ms total)
T046C 4778:904 JLINK_ReadReg(R15 (PC))  returns 0x08000228 (0001ms, 12883ms total)
T046C 4778:905 JLINK_ReadReg(XPSR)  returns 0x01000000 (0000ms, 12883ms total)
T046C 4778:905 JLINK_Halt()  returns 0x00 (0000ms, 12883ms total)
T046C 4778:905 JLINK_ReadMemU32(0xE000EDF0, 0x0001 Items, ...) -- CPU_ReadMem(4 bytes @ 0xE000EDF0) - Data: 03 00 03 00  returns 0x01 (0000ms, 12883ms total)
T046C 4778:905 JLINK_WriteU32(0xE000EDF0, 0xA05F0003) -- CPU_WriteMem(4 bytes @ 0xE000EDF0)  returns 0x00 (0001ms, 12884ms total)
T046C 4778:906 JLINK_WriteU32(0xE000EDFC, 0x01000000) -- CPU_WriteMem(4 bytes @ 0xE000EDFC)  returns 0x00 (0001ms, 12885ms total)
T046C 4778:907 JLINK_GetHWStatus(...)  returns 0x00 (0001ms, 12886ms total)
T046C 4778:908 JLINK_GetNumBPUnits(Type = 0xFFFFFF00)  returns 0x06 (0000ms, 12886ms total)
T046C 4778:908 JLINK_GetNumBPUnits(Type = 0xF0)  returns 0x2000 (0000ms, 12886ms total)
T046C 4778:908 JLINK_GetNumWPUnits()  returns 0x04 (0000ms, 12886ms total)
T046C 4778:909 JLINK_GetSpeed()  returns 0xFA0 (0000ms, 12887ms total)
T046C 4778:909 JLINK_ReadMemU32(0xE000E004, 0x0001 Items, ...) -- CPU_ReadMem(4 bytes @ 0xE000E004) - Data: 02 00 00 00  returns 0x01 (0000ms, 12887ms total)
T046C 4778:909 JLINK_ReadMemU32(0xE000E004, 0x0001 Items, ...) -- CPU_ReadMem(4 bytes @ 0xE000E004) - Data: 02 00 00 00  returns 0x01 (0001ms, 12888ms total)
T046C 4778:910 JLINK_WriteMemEx(0xE0001000, 0x001C Bytes, ..., Flags = 0x02000004) - Data: 01 00 00 00 00 00 00 00 00 00 00 00 00 00 00 00 ... -- CPU_WriteMem(28 bytes @ 0xE0001000)  returns 0x1C (0003ms, 12891ms total)
T046C 4778:913 JLINK_ReadReg(R15 (PC))  returns 0x08000228 (0000ms, 12891ms total)
T046C 4778:913 JLINK_ReadReg(XPSR)  returns 0x01000000 (0000ms, 12891ms total)
T046C 4778:960 JLINK_ReadMemEx(0x08000000, 0x0664 Bytes, ..., Flags = 0x02000000) -- CPU_ReadMem(1664 bytes @ 0x08000000) -- Updating C cache (1664 bytes @ 0x08000000) -- Read from C cache (1636 bytes @ 0x08000000) - Data: 78 06 00 20 29 02 00 08 31 02 00 08 33 02 00 08 ...  returns 0x664 (0011ms, 12902ms total)
T046C 4779:022 JLINK_SetResetType(JLINKARM_CM3_RESET_TYPE_NORMAL)  returns JLINKARM_CM3_RESET_TYPE_NORMAL (0000ms, 12902ms total)
T046C 4779:022 JLINK_Reset() -- CPU_WriteMem(4 bytes @ 0xE000EDF0) -- CPU_WriteMem(4 bytes @ 0xE000EDFC)Reset: Halt core after reset via DEMCR.VC_CORERESET. >0x35 TIF>Reset: Reset device via AIRCR.SYSRESETREQ. -- CPU_WriteMem(4 bytes @ 0xE000ED0C) >0x0D TIF> >0x28 TIF> -- CPU_ReadMem(4 bytes @ 0xE000EDF0) -- CPU_ReadMem(4 bytes @ 0xE000EDF0) -- CPU_WriteMem(4 bytes @ 0xE000EDF0) -- CPU_WriteMem(4 bytes @ 0xE000EDFC) -- CPU_ReadMem(4 bytes @ 0xE000EDF0) -- CPU_WriteMem(4 bytes @ 0xE0002000)
 -- CPU_ReadMem(4 bytes @ 0xE000EDFC) -- CPU_ReadMem(4 bytes @ 0xE0001000) (0073ms, 12975ms total)
T046C 4779:096 JLINK_ReadReg(R15 (PC))  returns 0x08000228 (0000ms, 12975ms total)
T046C 4779:096 JLINK_ReadReg(XPSR)  returns 0x01000000 (0000ms, 12975ms total)
T046C 4779:097 JLINK_ReadMemEx(0x08000228, 0x003C Bytes, ..., Flags = 0x02000000) -- CPU_ReadMem(128 bytes @ 0x08000200) -- Updating C cache (128 bytes @ 0x08000200) -- Read from C cache (60 bytes @ 0x08000228) - Data: 09 48 80 47 09 48 00 47 FE E7 FE E7 FE E7 FE E7 ...  returns 0x3C (0001ms, 12976ms total)
T046C 4779:199 JLINK_ReadMemEx(0x40020C00, 0x0014 Bytes, ..., Flags = 0x02000004) -- CPU_ReadMem(20 bytes @ 0x40020C00) - Data: 00 00 00 00 00 00 00 00 00 00 00 00 00 00 00 00 ...  returns 0x14 (0001ms, 12977ms total)
T046C 4779:200 JLINK_ReadMemEx(0x40020C00, 0x0004 Bytes, ..., Flags = 0x02000004) -- CPU_ReadMem(4 bytes @ 0x40020C00) - Data: 00 00 00 00  returns 0x04 (0001ms, 12978ms total)
T046C 4779:201 JLINK_ReadMemEx(0x40020C04, 0x0004 Bytes, ..., Flags = 0x02000004) -- CPU_ReadMem(4 bytes @ 0x40020C04) - Data: 00 00 00 00  returns 0x04 (0001ms, 12979ms total)
T046C 4779:202 JLINK_ReadMemEx(0x40020C08, 0x0004 Bytes, ..., Flags = 0x02000004) -- CPU_ReadMem(4 bytes @ 0x40020C08) - Data: 00 00 00 00  returns 0x04 (0001ms, 12980ms total)
T046C 4779:203 JLINK_ReadMemEx(0x40020C0C, 0x0004 Bytes, ..., Flags = 0x02000004) -- CPU_ReadMem(4 bytes @ 0x40020C0C) - Data: 00 00 00 00  returns 0x04 (0001ms, 12981ms total)
T046C 4779:204 JLINK_ReadMemEx(0x40020C10, 0x0004 Bytes, ..., Flags = 0x02000004) -- CPU_ReadMem(4 bytes @ 0x40020C10) - Data: 00 00 00 00  returns 0x04 (0001ms, 12982ms total)
T046C 4779:205 JLINK_ReadMemEx(0x40020C14, 0x0004 Bytes, ..., Flags = 0x02000004) -- CPU_ReadMem(4 bytes @ 0x40020C14) - Data: 00 00 00 00  returns 0x04 (0001ms, 12983ms total)
T046C 4779:206 JLINK_ReadMemEx(0x40020C14, 0x0004 Bytes, ..., Flags = 0x02000004) -- CPU_ReadMem(4 bytes @ 0x40020C14) - Data: 00 00 00 00  returns 0x04 (0001ms, 12984ms total)
T046C 4779:207 JLINK_ReadMemEx(0x40020C1C, 0x0008 Bytes, ..., Flags = 0x02000004) -- CPU_ReadMem(8 bytes @ 0x40020C1C) - Data: 00 00 00 00 00 00 00 00  returns 0x08 (0001ms, 12985ms total)
T046C 4779:208 JLINK_ReadMemEx(0x40020C1C, 0x0004 Bytes, ..., Flags = 0x02000004) -- CPU_ReadMem(4 bytes @ 0x40020C1C) - Data: 00 00 00 00  returns 0x04 (0001ms, 12986ms total)
T046C 4779:209 JLINK_ReadMemEx(0x40020C20, 0x0004 Bytes, ..., Flags = 0x02000004) -- CPU_ReadMem(4 bytes @ 0x40020C20) - Data: 00 00 00 00  returns 0x04 (0001ms, 12987ms total)
T046C 4779:210 JLINK_ReadMemEx(0x40020C24, 0x0004 Bytes, ..., Flags = 0x02000004) -- CPU_ReadMem(4 bytes @ 0x40020C24) - Data: 00 00 00 00  returns 0x04 (0001ms, 12988ms total)
T046C 4779:211 JLINK_ReadMemEx(0x40020C24, 0x0004 Bytes, ..., Flags = 0x02000004) -- CPU_ReadMem(4 bytes @ 0x40020C24) - Data: 00 00 00 00  returns 0x04 (0001ms, 12989ms total)
T17BC 4780:286 JLINK_ReadMemEx(0x08000228, 0x0002 Bytes, ..., Flags = 0x02000000) -- Read from C cache (2 bytes @ 0x08000228) - Data: 09 48  returns 0x02 (0000ms, 12989ms total)
T17BC 4780:286 JLINK_SetBPEx(Addr = 0x08000550, Type = 0xFFFFFFF2)  returns 0x00000001 (0000ms, 12989ms total)
T17BC 4780:286 JLINK_Go() -- CPU_WriteMem(4 bytes @ 0xE0002000) -- CPU_ReadMem(4 bytes @ 0xE0001000) -- CPU_WriteMem(4 bytes @ 0xE0002008) -- CPU_WriteMem(4 bytes @ 0xE000200C) -- CPU_WriteMem(4 bytes @ 0xE0002010) -- CPU_WriteMem(4 bytes @ 0xE0002014) -- CPU_WriteMem(4 bytes @ 0xE0002018) -- CPU_WriteMem(4 bytes @ 0xE000201C) -- CPU_WriteMem(4 bytes @ 0xE0001004) (0007ms, 12996ms total)
T17BC 4780:393 JLINK_IsHalted()  returns TRUE (0004ms, 13000ms total)
T17BC 4780:397 JLINK_Halt()  returns 0x00 (0000ms, 12996ms total)
T17BC 4780:397 JLINK_IsHalted()  returns TRUE (0000ms, 12996ms total)
T17BC 4780:397 JLINK_IsHalted()  returns TRUE (0000ms, 12996ms total)
T17BC 4780:397 JLINK_IsHalted()  returns TRUE (0000ms, 12996ms total)
T17BC 4780:397 JLINK_ReadReg(R15 (PC))  returns 0x08000550 (0000ms, 12996ms total)
T17BC 4780:397 JLINK_ReadReg(XPSR)  returns 0x21000000 (0000ms, 12996ms total)
T17BC 4780:397 JLINK_ClrBPEx(BPHandle = 0x00000001)  returns 0x00 (0000ms, 12996ms total)
T17BC 4780:397 JLINK_ReadMemU32(0xE000ED30, 0x0001 Items, ...) -- CPU_ReadMem(4 bytes @ 0xE000ED30) - Data: 02 00 00 00  returns 0x01 (0002ms, 12998ms total)
T17BC 4780:399 JLINK_ReadMemU32(0xE0001028, 0x0001 Items, ...) -- CPU_ReadMem(4 bytes @ 0xE0001028) - Data: 00 00 00 00  returns 0x01 (0001ms, 12999ms total)
T17BC 4780:400 JLINK_ReadMemU32(0xE0001038, 0x0001 Items, ...) -- CPU_ReadMem(4 bytes @ 0xE0001038) - Data: 00 02 00 00  returns 0x01 (0001ms, 13000ms total)
T17BC 4780:401 JLINK_ReadMemU32(0xE0001048, 0x0001 Items, ...) -- CPU_ReadMem(4 bytes @ 0xE0001048) - Data: 00 00 00 00  returns 0x01 (0001ms, 13001ms total)
T17BC 4780:402 JLINK_ReadMemU32(0xE0001058, 0x0001 Items, ...) -- CPU_ReadMem(4 bytes @ 0xE0001058) - Data: 00 00 00 00  returns 0x01 (0001ms, 13002ms total)
T17BC 4780:403 JLINK_ReadReg(R0)  returns 0x20000078 (0000ms, 13002ms total)
T17BC 4780:403 JLINK_ReadReg(R1)  returns 0x20000278 (0000ms, 13002ms total)
T17BC 4780:403 JLINK_ReadReg(R2)  returns 0x20000278 (0000ms, 13002ms total)
T17BC 4780:403 JLINK_ReadReg(R3)  returns 0x20000278 (0000ms, 13002ms total)
T17BC 4780:403 JLINK_ReadReg(R4)  returns 0x00000000 (0000ms, 13002ms total)
T17BC 4780:403 JLINK_ReadReg(R5)  returns 0x20000018 (0000ms, 13002ms total)
T17BC 4780:403 JLINK_ReadReg(R6)  returns 0x00000000 (0000ms, 13002ms total)
T17BC 4780:403 JLINK_ReadReg(R7)  returns 0x00000000 (0000ms, 13002ms total)
T17BC 4780:403 JLINK_ReadReg(R8)  returns 0x00000000 (0000ms, 13002ms total)
T17BC 4780:403 JLINK_ReadReg(R9)  returns 0x00000000 (0000ms, 13002ms total)
T17BC 4780:403 JLINK_ReadReg(R10)  returns 0x0800064C (0000ms, 13002ms total)
T17BC 4780:403 JLINK_ReadReg(R11)  returns 0x00000000 (0000ms, 13002ms total)
T17BC 4780:403 JLINK_ReadReg(R12)  returns 0x20000058 (0000ms, 13002ms total)
T17BC 4780:403 JLINK_ReadReg(R13 (SP))  returns 0x20000678 (0000ms, 13002ms total)
T17BC 4780:403 JLINK_ReadReg(R14)  returns 0x08000217 (0000ms, 13002ms total)
T17BC 4780:403 JLINK_ReadReg(R15 (PC))  returns 0x08000550 (0000ms, 13002ms total)
T17BC 4780:403 JLINK_ReadReg(XPSR)  returns 0x21000000 (0000ms, 13002ms total)
T17BC 4780:403 JLINK_ReadReg(MSP)  returns 0x20000678 (0000ms, 13002ms total)
T17BC 4780:404 JLINK_ReadReg(PSP)  returns 0x00000000 (0000ms, 13003ms total)
T17BC 4780:404 JLINK_ReadReg(CFBP)  returns 0x04000000 (0000ms, 13003ms total)
T17BC 4780:404 JLINK_ReadReg(FPSCR)  returns 0x03000000 (0005ms, 13008ms total)
T17BC 4780:409 JLINK_ReadReg(FPS0)  returns 0x00000000 (0000ms, 13008ms total)
T17BC 4780:409 JLINK_ReadReg(FPS1)  returns 0x00000000 (0000ms, 13008ms total)
T17BC 4780:409 JLINK_ReadReg(FPS2)  returns 0x00000000 (0000ms, 13008ms total)
T17BC 4780:409 JLINK_ReadReg(FPS3)  returns 0x00000000 (0000ms, 13008ms total)
T17BC 4780:409 JLINK_ReadReg(FPS4)  returns 0x00000000 (0000ms, 13008ms total)
T17BC 4780:409 JLINK_ReadReg(FPS5)  returns 0x00000000 (0000ms, 13008ms total)
T17BC 4780:409 JLINK_ReadReg(FPS6)  returns 0x00000000 (0000ms, 13008ms total)
T17BC 4780:409 JLINK_ReadReg(FPS7)  returns 0x00000000 (0000ms, 13008ms total)
T17BC 4780:409 JLINK_ReadReg(FPS8)  returns 0x00000000 (0000ms, 13008ms total)
T17BC 4780:409 JLINK_ReadReg(FPS9)  returns 0x00000000 (0000ms, 13008ms total)
T17BC 4780:409 JLINK_ReadReg(FPS10)  returns 0x00000000 (0000ms, 13008ms total)
T17BC 4780:409 JLINK_ReadReg(FPS11)  returns 0x00000000 (0000ms, 13008ms total)
T17BC 4780:409 JLINK_ReadReg(FPS12)  returns 0x00000000 (0000ms, 13008ms total)
T17BC 4780:409 JLINK_ReadReg(FPS13)  returns 0x00000000 (0000ms, 13008ms total)
T17BC 4780:409 JLINK_ReadReg(FPS14)  returns 0x00000000 (0000ms, 13008ms total)
T17BC 4780:409 JLINK_ReadReg(FPS15)  returns 0x00000000 (0000ms, 13008ms total)
T17BC 4780:409 JLINK_ReadReg(FPS16)  returns 0x00000000 (0000ms, 13008ms total)
T17BC 4780:409 JLINK_ReadReg(FPS17)  returns 0x00000000 (0000ms, 13008ms total)
T17BC 4780:409 JLINK_ReadReg(FPS18)  returns 0x00000000 (0000ms, 13008ms total)
T17BC 4780:409 JLINK_ReadReg(FPS19)  returns 0x00000000 (0000ms, 13008ms total)
T17BC 4780:409 JLINK_ReadReg(FPS20)  returns 0x00000000 (0000ms, 13008ms total)
T17BC 4780:409 JLINK_ReadReg(FPS21)  returns 0x00000000 (0000ms, 13008ms total)
T17BC 4780:410 JLINK_ReadReg(FPS22)  returns 0x00000000 (0000ms, 13009ms total)
T17BC 4780:410 JLINK_ReadReg(FPS23)  returns 0x00000000 (0000ms, 13009ms total)
T17BC 4780:410 JLINK_ReadReg(FPS24)  returns 0x00000000 (0000ms, 13009ms total)
T17BC 4780:410 JLINK_ReadReg(FPS25)  returns 0x00000000 (0000ms, 13009ms total)
T17BC 4780:410 JLINK_ReadReg(FPS26)  returns 0x00000000 (0000ms, 13009ms total)
T17BC 4780:410 JLINK_ReadReg(FPS27)  returns 0x00000000 (0000ms, 13009ms total)
T17BC 4780:410 JLINK_ReadReg(FPS28)  returns 0x00000000 (0000ms, 13009ms total)
T17BC 4780:410 JLINK_ReadReg(FPS29)  returns 0x00000000 (0000ms, 13009ms total)
T17BC 4780:410 JLINK_ReadReg(FPS30)  returns 0x00000000 (0000ms, 13009ms total)
T17BC 4780:410 JLINK_ReadReg(FPS31)  returns 0x00000000 (0000ms, 13009ms total)
T046C 4780:417 JLINK_ReadMemU32(0xE0001004, 0x0001 Items, ...) -- CPU_ReadMem(4 bytes @ 0xE0001004) - Data: 7D 1E 00 00  returns 0x01 (0001ms, 13010ms total)
T046C 4780:418 JLINK_ReadMemEx(0x40020C00, 0x0014 Bytes, ..., Flags = 0x02000004) -- CPU_ReadMem(20 bytes @ 0x40020C00) - Data: 00 00 00 00 00 00 00 00 00 00 00 00 00 00 00 00 ...  returns 0x14 (0001ms, 13011ms total)
T046C 4780:419 JLINK_ReadMemEx(0x40020C00, 0x0004 Bytes, ..., Flags = 0x02000004) -- CPU_ReadMem(4 bytes @ 0x40020C00) - Data: 00 00 00 00  returns 0x04 (0001ms, 13012ms total)
T046C 4780:420 JLINK_ReadMemEx(0x40020C04, 0x0004 Bytes, ..., Flags = 0x02000004) -- CPU_ReadMem(4 bytes @ 0x40020C04) - Data: 00 00 00 00  returns 0x04 (0001ms, 13013ms total)
T046C 4780:421 JLINK_ReadMemEx(0x40020C08, 0x0004 Bytes, ..., Flags = 0x02000004) -- CPU_ReadMem(4 bytes @ 0x40020C08) - Data: 00 00 00 00  returns 0x04 (0001ms, 13014ms total)
T046C 4780:422 JLINK_ReadMemEx(0x40020C0C, 0x0004 Bytes, ..., Flags = 0x02000004) -- CPU_ReadMem(4 bytes @ 0x40020C0C) - Data: 00 00 00 00  returns 0x04 (0001ms, 13015ms total)
T046C 4780:423 JLINK_ReadMemEx(0x40020C10, 0x0004 Bytes, ..., Flags = 0x02000004) -- CPU_ReadMem(4 bytes @ 0x40020C10) - Data: 00 00 00 00  returns 0x04 (0001ms, 13016ms total)
T046C 4780:424 JLINK_ReadMemEx(0x40020C14, 0x0004 Bytes, ..., Flags = 0x02000004) -- CPU_ReadMem(4 bytes @ 0x40020C14) - Data: 00 00 00 00  returns 0x04 (0001ms, 13017ms total)
T046C 4780:425 JLINK_ReadMemEx(0x40020C14, 0x0004 Bytes, ..., Flags = 0x02000004) -- CPU_ReadMem(4 bytes @ 0x40020C14) - Data: 00 00 00 00  returns 0x04 (0001ms, 13018ms total)
T046C 4780:426 JLINK_ReadMemEx(0x40020C1C, 0x0008 Bytes, ..., Flags = 0x02000004) -- CPU_ReadMem(8 bytes @ 0x40020C1C) - Data: 00 00 00 00 00 00 00 00  returns 0x08 (0001ms, 13019ms total)
T046C 4780:427 JLINK_ReadMemEx(0x40020C1C, 0x0004 Bytes, ..., Flags = 0x02000004) -- CPU_ReadMem(4 bytes @ 0x40020C1C) - Data: 00 00 00 00  returns 0x04 (0001ms, 13020ms total)
T046C 4780:428 JLINK_ReadMemEx(0x40020C20, 0x0004 Bytes, ..., Flags = 0x02000004) -- CPU_ReadMem(4 bytes @ 0x40020C20) - Data: 00 00 00 00  returns 0x04 (0001ms, 13021ms total)
T046C 4780:429 JLINK_ReadMemEx(0x40020C24, 0x0004 Bytes, ..., Flags = 0x02000004) -- CPU_ReadMem(4 bytes @ 0x40020C24) - Data: 00 00 00 00  returns 0x04 (0001ms, 13022ms total)
T046C 4780:430 JLINK_ReadMemEx(0x40020C24, 0x0004 Bytes, ..., Flags = 0x02000004) -- CPU_ReadMem(4 bytes @ 0x40020C24) - Data: 00 00 00 00  returns 0x04 (0001ms, 13023ms total)
T046C 4780:432 JLINK_ReadMemEx(0x08000550, 0x003C Bytes, ..., Flags = 0x02000000) -- CPU_ReadMem(128 bytes @ 0x08000540) -- Updating C cache (128 bytes @ 0x08000540) -- Read from C cache (60 bytes @ 0x08000550) - Data: FF F7 14 FF 2E 48 00 68 4F F4 7A 72 B0 FB F2 F1 ...  returns 0x3C (0001ms, 13024ms total)
T046C 4792:492 JLINK_SetResetType(JLINKARM_CM3_RESET_TYPE_NORMAL)  returns JLINKARM_CM3_RESET_TYPE_NORMAL (0000ms, 13024ms total)
T046C 4792:492 JLINK_Reset() -- CPU_WriteMem(4 bytes @ 0xE000EDF0) -- CPU_WriteMem(4 bytes @ 0xE000EDFC)Reset: Halt core after reset via DEMCR.VC_CORERESET. >0x35 TIF>Reset: Reset device via AIRCR.SYSRESETREQ. -- CPU_WriteMem(4 bytes @ 0xE000ED0C) >0x0D TIF> >0x28 TIF> -- CPU_ReadMem(4 bytes @ 0xE000EDF0) -- CPU_ReadMem(4 bytes @ 0xE000EDF0) -- CPU_WriteMem(4 bytes @ 0xE000EDF0) -- CPU_WriteMem(4 bytes @ 0xE000EDFC) -- CPU_ReadMem(4 bytes @ 0xE000EDF0) -- CPU_WriteMem(4 bytes @ 0xE0002000)
 -- CPU_ReadMem(4 bytes @ 0xE000EDFC) -- CPU_ReadMem(4 bytes @ 0xE0001000) (0073ms, 13097ms total)
T046C 4792:565 JLINK_ReadReg(R15 (PC))  returns 0x08000228 (0000ms, 13097ms total)
T046C 4792:565 JLINK_ReadReg(XPSR)  returns 0x01000000 (0000ms, 13097ms total)
T046C 4792:566 JLINK_ReadReg(R0)  returns 0x00000000 (0000ms, 13097ms total)
T046C 4792:566 JLINK_ReadReg(R1)  returns 0x00000000 (0000ms, 13097ms total)
T046C 4792:566 JLINK_ReadReg(R2)  returns 0x00000000 (0000ms, 13097ms total)
T046C 4792:566 JLINK_ReadReg(R3)  returns 0x00000000 (0000ms, 13097ms total)
T046C 4792:566 JLINK_ReadReg(R4)  returns 0x00000000 (0000ms, 13097ms total)
T046C 4792:566 JLINK_ReadReg(R5)  returns 0x00000000 (0000ms, 13097ms total)
T046C 4792:566 JLINK_ReadReg(R6)  returns 0x00000000 (0000ms, 13097ms total)
T046C 4792:566 JLINK_ReadReg(R7)  returns 0x00000000 (0000ms, 13097ms total)
T046C 4792:566 JLINK_ReadReg(R8)  returns 0x00000000 (0000ms, 13097ms total)
T046C 4792:566 JLINK_ReadReg(R9)  returns 0x00000000 (0000ms, 13097ms total)
T046C 4792:566 JLINK_ReadReg(R10)  returns 0x00000000 (0000ms, 13097ms total)
T046C 4792:566 JLINK_ReadReg(R11)  returns 0x00000000 (0000ms, 13097ms total)
T046C 4792:566 JLINK_ReadReg(R12)  returns 0x00000000 (0000ms, 13097ms total)
T046C 4792:566 JLINK_ReadReg(R13 (SP))  returns 0x20000678 (0000ms, 13097ms total)
T046C 4792:566 JLINK_ReadReg(R14)  returns 0xFFFFFFFF (0000ms, 13097ms total)
T046C 4792:566 JLINK_ReadReg(R15 (PC))  returns 0x08000228 (0000ms, 13097ms total)
T046C 4792:566 JLINK_ReadReg(XPSR)  returns 0x01000000 (0000ms, 13097ms total)
T046C 4792:566 JLINK_ReadReg(MSP)  returns 0x20000678 (0000ms, 13097ms total)
T046C 4792:566 JLINK_ReadReg(PSP)  returns 0x00000000 (0000ms, 13097ms total)
T046C 4792:566 JLINK_ReadReg(CFBP)  returns 0x00000000 (0000ms, 13097ms total)
T046C 4792:566 JLINK_ReadReg(FPSCR)  returns 0x00000000 (0005ms, 13102ms total)
T046C 4792:571 JLINK_ReadReg(FPS0)  returns 0x00000000 (0000ms, 13102ms total)
T046C 4792:571 JLINK_ReadReg(FPS1)  returns 0x00000000 (0000ms, 13102ms total)
T046C 4792:571 JLINK_ReadReg(FPS2)  returns 0x00000000 (0000ms, 13102ms total)
T046C 4792:571 JLINK_ReadReg(FPS3)  returns 0x00000000 (0000ms, 13102ms total)
T046C 4792:571 JLINK_ReadReg(FPS4)  returns 0x00000000 (0000ms, 13102ms total)
T046C 4792:571 JLINK_ReadReg(FPS5)  returns 0x00000000 (0000ms, 13102ms total)
T046C 4792:571 JLINK_ReadReg(FPS6)  returns 0x00000000 (0000ms, 13102ms total)
T046C 4792:571 JLINK_ReadReg(FPS7)  returns 0x00000000 (0000ms, 13102ms total)
T046C 4792:571 JLINK_ReadReg(FPS8)  returns 0x00000000 (0000ms, 13102ms total)
T046C 4792:571 JLINK_ReadReg(FPS9)  returns 0x00000000 (0000ms, 13102ms total)
T046C 4792:571 JLINK_ReadReg(FPS10)  returns 0x00000000 (0000ms, 13102ms total)
T046C 4792:571 JLINK_ReadReg(FPS11)  returns 0x00000000 (0000ms, 13102ms total)
T046C 4792:571 JLINK_ReadReg(FPS12)  returns 0x00000000 (0000ms, 13102ms total)
T046C 4792:571 JLINK_ReadReg(FPS13)  returns 0x00000000 (0000ms, 13102ms total)
T046C 4792:571 JLINK_ReadReg(FPS14)  returns 0x00000000 (0000ms, 13102ms total)
T046C 4792:571 JLINK_ReadReg(FPS15)  returns 0x00000000 (0000ms, 13102ms total)
T046C 4792:571 JLINK_ReadReg(FPS16)  returns 0x00000000 (0000ms, 13102ms total)
T046C 4792:571 JLINK_ReadReg(FPS17)  returns 0x00000000 (0000ms, 13102ms total)
T046C 4792:571 JLINK_ReadReg(FPS18)  returns 0x00000000 (0000ms, 13102ms total)
T046C 4792:571 JLINK_ReadReg(FPS19)  returns 0x00000000 (0000ms, 13102ms total)
T046C 4792:571 JLINK_ReadReg(FPS20)  returns 0x00000000 (0000ms, 13102ms total)
T046C 4792:571 JLINK_ReadReg(FPS21)  returns 0x00000000 (0000ms, 13102ms total)
T046C 4792:571 JLINK_ReadReg(FPS22)  returns 0x00000000 (0000ms, 13102ms total)
T046C 4792:571 JLINK_ReadReg(FPS23)  returns 0x00000000 (0000ms, 13102ms total)
T046C 4792:571 JLINK_ReadReg(FPS24)  returns 0x00000000 (0000ms, 13102ms total)
T046C 4792:571 JLINK_ReadReg(FPS25)  returns 0x00000000 (0000ms, 13102ms total)
T046C 4792:571 JLINK_ReadReg(FPS26)  returns 0x00000000 (0000ms, 13102ms total)
T046C 4792:571 JLINK_ReadReg(FPS27)  returns 0x00000000 (0000ms, 13102ms total)
T046C 4792:571 JLINK_ReadReg(FPS28)  returns 0x00000000 (0000ms, 13102ms total)
T046C 4792:571 JLINK_ReadReg(FPS29)  returns 0x00000000 (0000ms, 13102ms total)
T046C 4792:571 JLINK_ReadReg(FPS30)  returns 0x00000000 (0000ms, 13102ms total)
T046C 4792:571 JLINK_ReadReg(FPS31)  returns 0x00000000 (0000ms, 13102ms total)
T046C 4792:571 JLINK_ReadMemU32(0xE0001004, 0x0001 Items, ...) - Data: 00 00 00 00  returns 0x01 (0000ms, 13102ms total)
T046C 4792:572 JLINK_ReadMemEx(0x08000228, 0x003C Bytes, ..., Flags = 0x02000000) -- CPU_ReadMem(128 bytes @ 0x08000200) -- Updating C cache (128 bytes @ 0x08000200) -- Read from C cache (60 bytes @ 0x08000228) - Data: 09 48 80 47 09 48 00 47 FE E7 FE E7 FE E7 FE E7 ...  returns 0x3C (0001ms, 13103ms total)
T17BC 4796:982 JLINK_ReadMemEx(0x08000228, 0x0002 Bytes, ..., Flags = 0x02000000) -- Read from C cache (2 bytes @ 0x08000228) - Data: 09 48  returns 0x02 (0000ms, 13103ms total)
T17BC 4796:982 JLINK_SetBPEx(Addr = 0x080005AE, Type = 0xFFFFFFF2)  returns 0x00000002 (0000ms, 13103ms total)
T17BC 4796:982 JLINK_Go() -- CPU_WriteMem(4 bytes @ 0xE0002000) -- CPU_ReadMem(4 bytes @ 0xE0001000) -- CPU_WriteMem(4 bytes @ 0xE0002008) -- CPU_WriteMem(4 bytes @ 0xE000200C) -- CPU_WriteMem(4 bytes @ 0xE0002010) -- CPU_WriteMem(4 bytes @ 0xE0002014) -- CPU_WriteMem(4 bytes @ 0xE0002018) -- CPU_WriteMem(4 bytes @ 0xE000201C) -- CPU_WriteMem(4 bytes @ 0xE0001004) (0007ms, 13110ms total)
T17BC 4797:089 JLINK_IsHalted()  returns TRUE (0003ms, 13113ms total)
T17BC 4797:092 JLINK_Halt()  returns 0x00 (0001ms, 13111ms total)
T17BC 4797:093 JLINK_IsHalted()  returns TRUE (0000ms, 13111ms total)
T17BC 4797:093 JLINK_IsHalted()  returns TRUE (0000ms, 13111ms total)
T17BC 4797:093 JLINK_IsHalted()  returns TRUE (0000ms, 13111ms total)
T17BC 4797:093 JLINK_ReadReg(R15 (PC))  returns 0x080005AE (0000ms, 13111ms total)
T17BC 4797:093 JLINK_ReadReg(XPSR)  returns 0x21000000 (0000ms, 13111ms total)
T17BC 4797:093 JLINK_ClrBPEx(BPHandle = 0x00000002)  returns 0x00 (0000ms, 13111ms total)
T17BC 4797:093 JLINK_ReadMemU32(0xE000ED30, 0x0001 Items, ...) -- CPU_ReadMem(4 bytes @ 0xE000ED30) - Data: 02 00 00 00  returns 0x01 (0000ms, 13111ms total)
T17BC 4797:093 JLINK_ReadMemU32(0xE0001028, 0x0001 Items, ...) -- CPU_ReadMem(4 bytes @ 0xE0001028) - Data: 00 00 00 00  returns 0x01 (0002ms, 13113ms total)
T17BC 4797:095 JLINK_ReadMemU32(0xE0001038, 0x0001 Items, ...) -- CPU_ReadMem(4 bytes @ 0xE0001038) - Data: 00 02 00 00  returns 0x01 (0000ms, 13113ms total)
T17BC 4797:095 JLINK_ReadMemU32(0xE0001048, 0x0001 Items, ...) -- CPU_ReadMem(4 bytes @ 0xE0001048) - Data: 00 00 00 00  returns 0x01 (0001ms, 13114ms total)
T17BC 4797:096 JLINK_ReadMemU32(0xE0001058, 0x0001 Items, ...) -- CPU_ReadMem(4 bytes @ 0xE0001058) - Data: 00 00 00 00  returns 0x01 (0001ms, 13115ms total)
T17BC 4797:098 JLINK_ReadReg(R0)  returns 0x40020C00 (0000ms, 13115ms total)
T17BC 4797:098 JLINK_ReadReg(R1)  returns 0x00004000 (0000ms, 13115ms total)
T17BC 4797:098 JLINK_ReadReg(R2)  returns 0xE000E000 (0000ms, 13115ms total)
T17BC 4797:098 JLINK_ReadReg(R3)  returns 0xE000ED18 (0000ms, 13115ms total)
T17BC 4797:098 JLINK_ReadReg(R4)  returns 0x0000000B (0000ms, 13115ms total)
T17BC 4797:098 JLINK_ReadReg(R5)  returns 0x000000F0 (0000ms, 13115ms total)
T17BC 4797:098 JLINK_ReadReg(R6)  returns 0x00000000 (0000ms, 13115ms total)
T17BC 4797:098 JLINK_ReadReg(R7)  returns 0x00000000 (0000ms, 13115ms total)
T17BC 4797:098 JLINK_ReadReg(R8)  returns 0x00000000 (0000ms, 13115ms total)
T17BC 4797:098 JLINK_ReadReg(R9)  returns 0x00000000 (0000ms, 13115ms total)
T17BC 4797:098 JLINK_ReadReg(R10)  returns 0x0800064C (0000ms, 13115ms total)
T17BC 4797:098 JLINK_ReadReg(R11)  returns 0x00000000 (0000ms, 13115ms total)
T17BC 4797:098 JLINK_ReadReg(R12)  returns 0x20000058 (0000ms, 13115ms total)
T17BC 4797:098 JLINK_ReadReg(R13 (SP))  returns 0x20000678 (0000ms, 13115ms total)
T17BC 4797:098 JLINK_ReadReg(R14)  returns 0x080005AF (0000ms, 13115ms total)
T17BC 4797:098 JLINK_ReadReg(R15 (PC))  returns 0x080005AE (0000ms, 13115ms total)
T17BC 4797:098 JLINK_ReadReg(XPSR)  returns 0x21000000 (0000ms, 13115ms total)
T17BC 4797:098 JLINK_ReadReg(MSP)  returns 0x20000678 (0000ms, 13115ms total)
T17BC 4797:098 JLINK_ReadReg(PSP)  returns 0x00000000 (0000ms, 13115ms total)
T17BC 4797:098 JLINK_ReadReg(CFBP)  returns 0x04000000 (0000ms, 13115ms total)
T17BC 4797:098 JLINK_ReadReg(FPSCR)  returns 0x03000000 (0005ms, 13120ms total)
T17BC 4797:103 JLINK_ReadReg(FPS0)  returns 0x00000000 (0000ms, 13120ms total)
T17BC 4797:103 JLINK_ReadReg(FPS1)  returns 0x00000000 (0000ms, 13120ms total)
T17BC 4797:103 JLINK_ReadReg(FPS2)  returns 0x00000000 (0000ms, 13120ms total)
T17BC 4797:103 JLINK_ReadReg(FPS3)  returns 0x00000000 (0000ms, 13120ms total)
T17BC 4797:103 JLINK_ReadReg(FPS4)  returns 0x00000000 (0000ms, 13120ms total)
T17BC 4797:103 JLINK_ReadReg(FPS5)  returns 0x00000000 (0000ms, 13120ms total)
T17BC 4797:103 JLINK_ReadReg(FPS6)  returns 0x00000000 (0000ms, 13120ms total)
T17BC 4797:103 JLINK_ReadReg(FPS7)  returns 0x00000000 (0000ms, 13120ms total)
T17BC 4797:103 JLINK_ReadReg(FPS8)  returns 0x00000000 (0000ms, 13120ms total)
T17BC 4797:103 JLINK_ReadReg(FPS9)  returns 0x00000000 (0001ms, 13121ms total)
T17BC 4797:104 JLINK_ReadReg(FPS10)  returns 0x00000000 (0000ms, 13121ms total)
T17BC 4797:104 JLINK_ReadReg(FPS11)  returns 0x00000000 (0000ms, 13121ms total)
T17BC 4797:104 JLINK_ReadReg(FPS12)  returns 0x00000000 (0000ms, 13121ms total)
T17BC 4797:104 JLINK_ReadReg(FPS13)  returns 0x00000000 (0000ms, 13121ms total)
T17BC 4797:104 JLINK_ReadReg(FPS14)  returns 0x00000000 (0000ms, 13121ms total)
T17BC 4797:104 JLINK_ReadReg(FPS15)  returns 0x00000000 (0000ms, 13121ms total)
T17BC 4797:104 JLINK_ReadReg(FPS16)  returns 0x00000000 (0000ms, 13121ms total)
T17BC 4797:104 JLINK_ReadReg(FPS17)  returns 0x00000000 (0000ms, 13121ms total)
T17BC 4797:104 JLINK_ReadReg(FPS18)  returns 0x00000000 (0000ms, 13121ms total)
T17BC 4797:104 JLINK_ReadReg(FPS19)  returns 0x00000000 (0000ms, 13121ms total)
T17BC 4797:104 JLINK_ReadReg(FPS20)  returns 0x00000000 (0000ms, 13121ms total)
T17BC 4797:104 JLINK_ReadReg(FPS21)  returns 0x00000000 (0000ms, 13121ms total)
T17BC 4797:104 JLINK_ReadReg(FPS22)  returns 0x00000000 (0000ms, 13121ms total)
T17BC 4797:104 JLINK_ReadReg(FPS23)  returns 0x00000000 (0000ms, 13121ms total)
T17BC 4797:104 JLINK_ReadReg(FPS24)  returns 0x00000000 (0000ms, 13121ms total)
T17BC 4797:104 JLINK_ReadReg(FPS25)  returns 0x00000000 (0000ms, 13121ms total)
T17BC 4797:104 JLINK_ReadReg(FPS26)  returns 0x00000000 (0000ms, 13121ms total)
T17BC 4797:104 JLINK_ReadReg(FPS27)  returns 0x00000000 (0000ms, 13121ms total)
T17BC 4797:104 JLINK_ReadReg(FPS28)  returns 0x00000000 (0000ms, 13121ms total)
T17BC 4797:104 JLINK_ReadReg(FPS29)  returns 0x00000000 (0000ms, 13121ms total)
T17BC 4797:104 JLINK_ReadReg(FPS30)  returns 0x00000000 (0000ms, 13121ms total)
T17BC 4797:104 JLINK_ReadReg(FPS31)  returns 0x00000000 (0000ms, 13121ms total)
T046C 4797:113 JLINK_ReadMemU32(0xE0001004, 0x0001 Items, ...) -- CPU_ReadMem(4 bytes @ 0xE0001004) - Data: 34 21 00 00  returns 0x01 (0001ms, 13122ms total)
T046C 4797:114 JLINK_ReadMemEx(0x40020C00, 0x0014 Bytes, ..., Flags = 0x02000004) -- CPU_ReadMem(20 bytes @ 0x40020C00) - Data: 00 00 00 55 00 00 00 00 00 00 00 00 00 00 00 00 ...  returns 0x14 (0001ms, 13123ms total)
T046C 4797:115 JLINK_ReadMemEx(0x40020C00, 0x0004 Bytes, ..., Flags = 0x02000004) -- CPU_ReadMem(4 bytes @ 0x40020C00) - Data: 00 00 00 55  returns 0x04 (0001ms, 13124ms total)
T046C 4797:116 JLINK_ReadMemEx(0x40020C04, 0x0004 Bytes, ..., Flags = 0x02000004) -- CPU_ReadMem(4 bytes @ 0x40020C04) - Data: 00 00 00 00  returns 0x04 (0001ms, 13125ms total)
T046C 4797:117 JLINK_ReadMemEx(0x40020C08, 0x0004 Bytes, ..., Flags = 0x02000004) -- CPU_ReadMem(4 bytes @ 0x40020C08) - Data: 00 00 00 00  returns 0x04 (0001ms, 13126ms total)
T046C 4797:118 JLINK_ReadMemEx(0x40020C0C, 0x0004 Bytes, ..., Flags = 0x02000004) -- CPU_ReadMem(4 bytes @ 0x40020C0C) - Data: 00 00 00 00  returns 0x04 (0001ms, 13127ms total)
T046C 4797:119 JLINK_ReadMemEx(0x40020C10, 0x0004 Bytes, ..., Flags = 0x02000004) -- CPU_ReadMem(4 bytes @ 0x40020C10) - Data: 20 00 00 00  returns 0x04 (0001ms, 13128ms total)
T046C 4797:120 JLINK_ReadMemEx(0x40020C14, 0x0004 Bytes, ..., Flags = 0x02000004) -- CPU_ReadMem(4 bytes @ 0x40020C14) - Data: 00 00 00 00  returns 0x04 (0001ms, 13129ms total)
T046C 4797:121 JLINK_ReadMemEx(0x40020C14, 0x0004 Bytes, ..., Flags = 0x02000004) -- CPU_ReadMem(4 bytes @ 0x40020C14) - Data: 00 00 00 00  returns 0x04 (0001ms, 13130ms total)
T046C 4797:122 JLINK_ReadMemEx(0x40020C1C, 0x0008 Bytes, ..., Flags = 0x02000004) -- CPU_ReadMem(8 bytes @ 0x40020C1C) - Data: 00 00 00 00 00 00 00 00  returns 0x08 (0001ms, 13131ms total)
T046C 4797:123 JLINK_ReadMemEx(0x40020C1C, 0x0004 Bytes, ..., Flags = 0x02000004) -- CPU_ReadMem(4 bytes @ 0x40020C1C) - Data: 00 00 00 00  returns 0x04 (0001ms, 13132ms total)
T046C 4797:124 JLINK_ReadMemEx(0x40020C20, 0x0004 Bytes, ..., Flags = 0x02000004) -- CPU_ReadMem(4 bytes @ 0x40020C20) - Data: 00 00 00 00  returns 0x04 (0001ms, 13133ms total)
T046C 4797:125 JLINK_ReadMemEx(0x40020C24, 0x0004 Bytes, ..., Flags = 0x02000004) -- CPU_ReadMem(4 bytes @ 0x40020C24) - Data: 00 00 00 00  returns 0x04 (0001ms, 13134ms total)
T046C 4797:126 JLINK_ReadMemEx(0x40020C24, 0x0004 Bytes, ..., Flags = 0x02000004) -- CPU_ReadMem(4 bytes @ 0x40020C24) - Data: 00 00 00 00  returns 0x04 (0001ms, 13135ms total)
T046C 4797:138 JLINK_ReadMemEx(0x080005AE, 0x0002 Bytes, ..., Flags = 0x02000000) -- CPU_ReadMem(64 bytes @ 0x08000580) -- Updating C cache (64 bytes @ 0x08000580) -- Read from C cache (2 bytes @ 0x080005AE) - Data: 4F F4  returns 0x02 (0002ms, 13137ms total)
T046C 4797:140 JLINK_ReadMemEx(0x080005B0, 0x003C Bytes, ..., Flags = 0x02000000) -- CPU_ReadMem(64 bytes @ 0x080005C0) -- Updating C cache (64 bytes @ 0x080005C0) -- Read from C cache (60 bytes @ 0x080005B0) - Data: 00 51 1A 48 FF F7 DF FE C8 20 FF F7 BF FF 4F F4 ...  returns 0x3C (0001ms, 13138ms total)
T17BC 4804:596 JLINK_ReadMemEx(0x080005AE, 0x0002 Bytes, ..., Flags = 0x02000000) -- Read from C cache (2 bytes @ 0x080005AE) - Data: 4F F4  returns 0x02 (0000ms, 13138ms total)
T17BC 4804:596 JLINK_Step() -- Read from C cache (2 bytes @ 0x080005AE) -- CPU_ReadMem(4 bytes @ 0xE000ED18) -- CPU_WriteMem(4 bytes @ 0xE000ED18) -- CPU_ReadMem(4 bytes @ 0xE000ED18) -- CPU_WriteMem(4 bytes @ 0xE000ED18) -- Read from C cache (2 bytes @ 0x080005B0) -- Simulated  returns 0x00 (0005ms, 13143ms total)
T17BC 4804:601 JLINK_ReadReg(R15 (PC))  returns 0x080005B2 (0000ms, 13143ms total)
T17BC 4804:601 JLINK_ReadReg(XPSR)  returns 0x21000000 (0000ms, 13143ms total)
T17BC 4804:601 JLINK_ReadMemEx(0x080005B0, 0x003C Bytes, ..., Flags = 0x02000000) -- Read from C cache (60 bytes @ 0x080005B0) - Data: 00 51 1A 48 FF F7 DF FE C8 20 FF F7 BF FF 4F F4 ...  returns 0x3C (0000ms, 13143ms total)
T17BC 4804:601 JLINK_ReadMemEx(0x080005B0, 0x0002 Bytes, ..., Flags = 0x02000000) -- Read from C cache (2 bytes @ 0x080005B0) - Data: 00 51  returns 0x02 (0000ms, 13143ms total)
T17BC 4804:601 JLINK_ReadMemEx(0x080005B2, 0x0002 Bytes, ..., Flags = 0x02000000) -- Read from C cache (2 bytes @ 0x080005B2) - Data: 1A 48  returns 0x02 (0000ms, 13143ms total)
T17BC 4804:601 JLINK_ReadMemEx(0x080005B2, 0x0002 Bytes, ..., Flags = 0x02000000) -- Read from C cache (2 bytes @ 0x080005B2) - Data: 1A 48  returns 0x02 (0000ms, 13143ms total)
T17BC 4804:601 JLINK_ReadMemEx(0x080005B4, 0x003C Bytes, ..., Flags = 0x02000000) -- Read from C cache (60 bytes @ 0x080005B4) - Data: FF F7 DF FE C8 20 FF F7 BF FF 4F F4 80 51 16 48 ...  returns 0x3C (0001ms, 13144ms total)
T17BC 4804:602 JLINK_ReadMemEx(0x080005B4, 0x0002 Bytes, ..., Flags = 0x02000000) -- Read from C cache (2 bytes @ 0x080005B4) - Data: FF F7  returns 0x02 (0000ms, 13144ms total)
T17BC 4804:602 JLINK_Step() -- Read from C cache (2 bytes @ 0x080005B2) -- CPU_ReadMem(64 bytes @ 0x08000600) -- Updating C cache (64 bytes @ 0x08000600) -- Read from C cache (4 bytes @ 0x0800061C) -- Simulated  returns 0x00 (0001ms, 13145ms total)
T17BC 4804:603 JLINK_ReadReg(R15 (PC))  returns 0x080005B4 (0000ms, 13145ms total)
T17BC 4804:603 JLINK_ReadReg(XPSR)  returns 0x21000000 (0000ms, 13145ms total)
T17BC 4804:603 JLINK_ReadMemEx(0x080005B4, 0x003C Bytes, ..., Flags = 0x02000000) -- Read from C cache (60 bytes @ 0x080005B4) - Data: FF F7 DF FE C8 20 FF F7 BF FF 4F F4 80 51 16 48 ...  returns 0x3C (0000ms, 13145ms total)
T17BC 4804:603 JLINK_ReadMemEx(0x080005B4, 0x0002 Bytes, ..., Flags = 0x02000000) -- Read from C cache (2 bytes @ 0x080005B4) - Data: FF F7  returns 0x02 (0000ms, 13145ms total)
T17BC 4804:603 JLINK_ReadMemEx(0x080005B6, 0x0002 Bytes, ..., Flags = 0x02000000) -- Read from C cache (2 bytes @ 0x080005B6) - Data: DF FE  returns 0x02 (0000ms, 13145ms total)
T17BC 4804:604 JLINK_Step() -- Read from C cache (2 bytes @ 0x080005B4) -- Read from C cache (2 bytes @ 0x080005B6) -- Simulated  returns 0x00 (0000ms, 13145ms total)
T17BC 4804:604 JLINK_ReadReg(R15 (PC))  returns 0x08000376 (0000ms, 13145ms total)
T17BC 4804:604 JLINK_ReadReg(XPSR)  returns 0x21000000 (0000ms, 13145ms total)
T17BC 4804:605 JLINK_ReadReg(R0)  returns 0x40020C00 (0000ms, 13145ms total)
T17BC 4804:605 JLINK_ReadReg(R1)  returns 0x00002000 (0000ms, 13145ms total)
T17BC 4804:605 JLINK_ReadReg(R2)  returns 0xE000E000 (0000ms, 13145ms total)
T17BC 4804:605 JLINK_ReadReg(R3)  returns 0xE000ED18 (0000ms, 13145ms total)
T17BC 4804:605 JLINK_ReadReg(R4)  returns 0x0000000B (0000ms, 13145ms total)
T17BC 4804:605 JLINK_ReadReg(R5)  returns 0x000000F0 (0000ms, 13145ms total)
T17BC 4804:605 JLINK_ReadReg(R6)  returns 0x00000000 (0000ms, 13145ms total)
T17BC 4804:605 JLINK_ReadReg(R7)  returns 0x00000000 (0000ms, 13145ms total)
T17BC 4804:605 JLINK_ReadReg(R8)  returns 0x00000000 (0000ms, 13145ms total)
T17BC 4804:605 JLINK_ReadReg(R9)  returns 0x00000000 (0000ms, 13145ms total)
T17BC 4804:605 JLINK_ReadReg(R10)  returns 0x0800064C (0000ms, 13145ms total)
T17BC 4804:605 JLINK_ReadReg(R11)  returns 0x00000000 (0000ms, 13145ms total)
T17BC 4804:605 JLINK_ReadReg(R12)  returns 0x20000058 (0000ms, 13145ms total)
T17BC 4804:605 JLINK_ReadReg(R13 (SP))  returns 0x20000678 (0000ms, 13145ms total)
T17BC 4804:605 JLINK_ReadReg(R14)  returns 0x080005B9 (0000ms, 13145ms total)
T17BC 4804:605 JLINK_ReadReg(R15 (PC))  returns 0x08000376 (0000ms, 13145ms total)
T17BC 4804:605 JLINK_ReadReg(XPSR)  returns 0x21000000 (0000ms, 13145ms total)
T17BC 4804:605 JLINK_ReadReg(MSP)  returns 0x20000678 (0000ms, 13145ms total)
T17BC 4804:605 JLINK_ReadReg(PSP)  returns 0x00000000 (0000ms, 13145ms total)
T17BC 4804:605 JLINK_ReadReg(CFBP)  returns 0x04000000 (0000ms, 13145ms total)
T17BC 4804:605 JLINK_ReadReg(FPSCR)  returns 0x03000000 (0000ms, 13145ms total)
T17BC 4804:605 JLINK_ReadReg(FPS0)  returns 0x00000000 (0000ms, 13145ms total)
T17BC 4804:605 JLINK_ReadReg(FPS1)  returns 0x00000000 (0000ms, 13145ms total)
T17BC 4804:605 JLINK_ReadReg(FPS2)  returns 0x00000000 (0000ms, 13145ms total)
T17BC 4804:605 JLINK_ReadReg(FPS3)  returns 0x00000000 (0000ms, 13145ms total)
T17BC 4804:605 JLINK_ReadReg(FPS4)  returns 0x00000000 (0001ms, 13146ms total)
T17BC 4804:606 JLINK_ReadReg(FPS5)  returns 0x00000000 (0000ms, 13146ms total)
T17BC 4804:606 JLINK_ReadReg(FPS6)  returns 0x00000000 (0000ms, 13146ms total)
T17BC 4804:606 JLINK_ReadReg(FPS7)  returns 0x00000000 (0000ms, 13146ms total)
T17BC 4804:606 JLINK_ReadReg(FPS8)  returns 0x00000000 (0000ms, 13146ms total)
T17BC 4804:606 JLINK_ReadReg(FPS9)  returns 0x00000000 (0000ms, 13146ms total)
T17BC 4804:606 JLINK_ReadReg(FPS10)  returns 0x00000000 (0000ms, 13146ms total)
T17BC 4804:606 JLINK_ReadReg(FPS11)  returns 0x00000000 (0000ms, 13146ms total)
T17BC 4804:606 JLINK_ReadReg(FPS12)  returns 0x00000000 (0000ms, 13146ms total)
T17BC 4804:606 JLINK_ReadReg(FPS13)  returns 0x00000000 (0000ms, 13146ms total)
T17BC 4804:606 JLINK_ReadReg(FPS14)  returns 0x00000000 (0000ms, 13146ms total)
T17BC 4804:606 JLINK_ReadReg(FPS15)  returns 0x00000000 (0000ms, 13146ms total)
T17BC 4804:606 JLINK_ReadReg(FPS16)  returns 0x00000000 (0000ms, 13146ms total)
T17BC 4804:606 JLINK_ReadReg(FPS17)  returns 0x00000000 (0000ms, 13146ms total)
T17BC 4804:606 JLINK_ReadReg(FPS18)  returns 0x00000000 (0000ms, 13146ms total)
T17BC 4804:606 JLINK_ReadReg(FPS19)  returns 0x00000000 (0000ms, 13146ms total)
T17BC 4804:606 JLINK_ReadReg(FPS20)  returns 0x00000000 (0000ms, 13146ms total)
T17BC 4804:606 JLINK_ReadReg(FPS21)  returns 0x00000000 (0000ms, 13146ms total)
T17BC 4804:606 JLINK_ReadReg(FPS22)  returns 0x00000000 (0000ms, 13146ms total)
T17BC 4804:606 JLINK_ReadReg(FPS23)  returns 0x00000000 (0000ms, 13146ms total)
T17BC 4804:606 JLINK_ReadReg(FPS24)  returns 0x00000000 (0000ms, 13146ms total)
T17BC 4804:606 JLINK_ReadReg(FPS25)  returns 0x00000000 (0000ms, 13146ms total)
T17BC 4804:606 JLINK_ReadReg(FPS26)  returns 0x00000000 (0000ms, 13146ms total)
T17BC 4804:606 JLINK_ReadReg(FPS27)  returns 0x00000000 (0000ms, 13146ms total)
T17BC 4804:606 JLINK_ReadReg(FPS28)  returns 0x00000000 (0000ms, 13146ms total)
T17BC 4804:606 JLINK_ReadReg(FPS29)  returns 0x00000000 (0000ms, 13146ms total)
T17BC 4804:606 JLINK_ReadReg(FPS30)  returns 0x00000000 (0001ms, 13147ms total)
T17BC 4804:607 JLINK_ReadReg(FPS31)  returns 0x00000000 (0000ms, 13147ms total)
T046C 4804:617 JLINK_ReadMemU32(0xE0001004, 0x0001 Items, ...) - Data: 38 21 00 00  returns 0x01 (0000ms, 13147ms total)
T046C 4804:617 JLINK_ReadMemEx(0x40020C00, 0x0014 Bytes, ..., Flags = 0x02000004) -- CPU_ReadMem(20 bytes @ 0x40020C00) - Data: 00 00 00 55 00 00 00 00 00 00 00 00 00 00 00 00 ...  returns 0x14 (0001ms, 13148ms total)
T046C 4804:618 JLINK_ReadMemEx(0x40020C00, 0x0004 Bytes, ..., Flags = 0x02000004) -- CPU_ReadMem(4 bytes @ 0x40020C00) - Data: 00 00 00 55  returns 0x04 (0001ms, 13149ms total)
T046C 4804:619 JLINK_ReadMemEx(0x40020C04, 0x0004 Bytes, ..., Flags = 0x02000004) -- CPU_ReadMem(4 bytes @ 0x40020C04) - Data: 00 00 00 00  returns 0x04 (0001ms, 13150ms total)
T046C 4804:620 JLINK_ReadMemEx(0x40020C08, 0x0004 Bytes, ..., Flags = 0x02000004) -- CPU_ReadMem(4 bytes @ 0x40020C08) - Data: 00 00 00 00  returns 0x04 (0001ms, 13151ms total)
T046C 4804:621 JLINK_ReadMemEx(0x40020C0C, 0x0004 Bytes, ..., Flags = 0x02000004) -- CPU_ReadMem(4 bytes @ 0x40020C0C) - Data: 00 00 00 00  returns 0x04 (0001ms, 13152ms total)
T046C 4804:622 JLINK_ReadMemEx(0x40020C10, 0x0004 Bytes, ..., Flags = 0x02000004) -- CPU_ReadMem(4 bytes @ 0x40020C10) - Data: 20 00 00 00  returns 0x04 (0001ms, 13153ms total)
T046C 4804:623 JLINK_ReadMemEx(0x40020C14, 0x0004 Bytes, ..., Flags = 0x02000004) -- CPU_ReadMem(4 bytes @ 0x40020C14) - Data: 00 00 00 00  returns 0x04 (0001ms, 13154ms total)
T046C 4804:624 JLINK_ReadMemEx(0x40020C14, 0x0004 Bytes, ..., Flags = 0x02000004) -- CPU_ReadMem(4 bytes @ 0x40020C14) - Data: 00 00 00 00  returns 0x04 (0001ms, 13155ms total)
T046C 4804:625 JLINK_ReadMemEx(0x40020C1C, 0x0008 Bytes, ..., Flags = 0x02000004) -- CPU_ReadMem(8 bytes @ 0x40020C1C) - Data: 00 00 00 00 00 00 00 00  returns 0x08 (0001ms, 13156ms total)
T046C 4804:626 JLINK_ReadMemEx(0x40020C1C, 0x0004 Bytes, ..., Flags = 0x02000004) -- CPU_ReadMem(4 bytes @ 0x40020C1C) - Data: 00 00 00 00  returns 0x04 (0001ms, 13157ms total)
T046C 4804:627 JLINK_ReadMemEx(0x40020C20, 0x0004 Bytes, ..., Flags = 0x02000004) -- CPU_ReadMem(4 bytes @ 0x40020C20) - Data: 00 00 00 00  returns 0x04 (0001ms, 13158ms total)
T046C 4804:628 JLINK_ReadMemEx(0x40020C24, 0x0004 Bytes, ..., Flags = 0x02000004) -- CPU_ReadMem(4 bytes @ 0x40020C24) - Data: 00 00 00 00  returns 0x04 (0001ms, 13159ms total)
T046C 4804:629 JLINK_ReadMemEx(0x40020C24, 0x0004 Bytes, ..., Flags = 0x02000004) -- CPU_ReadMem(4 bytes @ 0x40020C24) - Data: 00 00 00 00  returns 0x04 (0001ms, 13160ms total)
T046C 4804:631 JLINK_ReadMemEx(0x08000376, 0x0002 Bytes, ..., Flags = 0x02000000) -- CPU_ReadMem(64 bytes @ 0x08000340) -- Updating C cache (64 bytes @ 0x08000340) -- Read from C cache (2 bytes @ 0x08000376) - Data: 01 83  returns 0x02 (0001ms, 13161ms total)
T046C 4804:632 JLINK_ReadMemEx(0x08000378, 0x003C Bytes, ..., Flags = 0x02000000) -- CPU_ReadMem(64 bytes @ 0x08000380) -- Updating C cache (64 bytes @ 0x08000380) -- Read from C cache (60 bytes @ 0x08000378) - Data: 70 47 00 00 1C B5 01 21 08 20 00 F0 15 F8 4F F4 ...  returns 0x3C (0001ms, 13162ms total)
T17BC 4806:244 JLINK_ReadMemEx(0x08000376, 0x0002 Bytes, ..., Flags = 0x02000000) -- Read from C cache (2 bytes @ 0x08000376) - Data: 01 83  returns 0x02 (0000ms, 13162ms total)
T17BC 4806:244 JLINK_Step() -- Read from C cache (2 bytes @ 0x08000376) -- Not simulated -- CPU_WriteMem(4 bytes @ 0xE0002008) -- CPU_WriteMem(4 bytes @ 0xE0001004)  returns 0x00 (0009ms, 13171ms total)
T17BC 4806:253 JLINK_ReadReg(R15 (PC))  returns 0x08000378 (0000ms, 13171ms total)
T17BC 4806:253 JLINK_ReadReg(XPSR)  returns 0x21000000 (0000ms, 13171ms total)
T17BC 4806:253 JLINK_ReadReg(R0)  returns 0x40020C00 (0000ms, 13171ms total)
T17BC 4806:253 JLINK_ReadReg(R1)  returns 0x00002000 (0000ms, 13171ms total)
T17BC 4806:253 JLINK_ReadReg(R2)  returns 0xE000E000 (0000ms, 13171ms total)
T17BC 4806:253 JLINK_ReadReg(R3)  returns 0xE000ED18 (0000ms, 13171ms total)
T17BC 4806:253 JLINK_ReadReg(R4)  returns 0x0000000B (0000ms, 13171ms total)
T17BC 4806:253 JLINK_ReadReg(R5)  returns 0x000000F0 (0000ms, 13171ms total)
T17BC 4806:253 JLINK_ReadReg(R6)  returns 0x00000000 (0000ms, 13171ms total)
T17BC 4806:253 JLINK_ReadReg(R7)  returns 0x00000000 (0000ms, 13171ms total)
T17BC 4806:253 JLINK_ReadReg(R8)  returns 0x00000000 (0001ms, 13172ms total)
T17BC 4806:254 JLINK_ReadReg(R9)  returns 0x00000000 (0000ms, 13172ms total)
T17BC 4806:254 JLINK_ReadReg(R10)  returns 0x0800064C (0000ms, 13172ms total)
T17BC 4806:254 JLINK_ReadReg(R11)  returns 0x00000000 (0000ms, 13172ms total)
T17BC 4806:254 JLINK_ReadReg(R12)  returns 0x20000058 (0000ms, 13172ms total)
T17BC 4806:254 JLINK_ReadReg(R13 (SP))  returns 0x20000678 (0000ms, 13172ms total)
T17BC 4806:254 JLINK_ReadReg(R14)  returns 0x080005B9 (0000ms, 13172ms total)
T17BC 4806:254 JLINK_ReadReg(R15 (PC))  returns 0x08000378 (0000ms, 13172ms total)
T17BC 4806:254 JLINK_ReadReg(XPSR)  returns 0x21000000 (0000ms, 13172ms total)
T17BC 4806:254 JLINK_ReadReg(MSP)  returns 0x20000678 (0000ms, 13172ms total)
T17BC 4806:254 JLINK_ReadReg(PSP)  returns 0x00000000 (0000ms, 13172ms total)
T17BC 4806:254 JLINK_ReadReg(CFBP)  returns 0x04000000 (0000ms, 13172ms total)
T17BC 4806:254 JLINK_ReadReg(FPSCR)  returns 0x03000000 (0005ms, 13177ms total)
